
**** 03/16/24 20:03:36 *** PSpice 23.1.0 (15 November 2023) *** ID# 0 ********

 ** Profile: "SCHEMATIC1-Impedance"  [ C:\VCO-transmitter\PSpice-Ouput-Impedance\output-impedance-PSpiceFiles\SCHEMATIC1\Impedance.si


 ****     CIRCUIT DESCRIPTION


******************************************************************************




** Creating circuit file "Impedance.cir" 
** WARNING: THIS AUTOMATICALLY GENERATED FILE MAY BE OVERWRITTEN BY SUBSEQUENT SIMULATIONS

*Libraries: 
* Profile Libraries :
* Local Libraries :
* From [PSPICE NETLIST] section of C:\Users\mazz\AppData\Roaming\SPB_Data\cdssetup\OrCAD_PSpice\23.1.0\PSpice.ini file:
.lib "nom.lib" 

*Analysis directives: 
.AC LIN 1e4 1e9 5e9
.OPTIONS ADVCONV
.PROBE64 V(alias(*)) I(alias(*)) W(alias(*)) D(alias(*)) NOISE(alias(*)) 
.INC "..\SCHEMATIC1.net" 



**** INCLUDING SCHEMATIC1.net ****
* source OUTPUT-IMPEDANCE
C_C2         0 N47723  3p  TC=0,0 
V_V9         N47525 0 5Vdc
C_C1         N47723 N47589  3p  TC=0,0 
X_Qi2         N47723 N47583 N47869 BFP520/INF
L_Lp         N47589 N47525  1nH  
X_Qi1         N47583 N47583 N47869 BFP520/INF
R_Ri         N47583 N47525  9.3k TC=0,0 
X_Qm1         N47589 0 N47723 BFP520/INF
V_V11         N47869 0 -5Vdc
C_C3         N47589 N48213  1m  TC=0,0 
V_V12         N48349 0 DC 0Vdc AC 1Vac 
R_R1         N48349 N48213  1k TC=0,0 

**** RESUMING Impedance.cir ****
.END

**** 03/16/24 20:03:36 *** PSpice 23.1.0 (15 November 2023) *** ID# 0 ********

 ** Profile: "SCHEMATIC1-Impedance"  [ C:\VCO-transmitter\PSpice-Ouput-Impedance\output-impedance-PSpiceFiles\SCHEMATIC1\Impedance.si


 ****     BJT MODEL PARAMETERS


******************************************************************************




               BFP520          
               NPN             
       LEVEL    1            
          IS   15.000000E-18 
          BF  235            
          NF    1            
         VAF   25            
         IKF     .4          
         ISE   25.000000E-15 
          NE    2            
          BR    1.5          
          NR    1            
         VAR    2            
         IKR     .01         
         ISC   20.000000E-15 
         ISS    0            
          RB   11            
         RBM    7.5          
          RE     .6          
          RC    7.6          
         CJE  235.000000E-15 
         VJE     .958        
         MJE     .335        
         CJC   93.000000E-15 
         VJC     .661        
         MJC     .236        
        XCJC    1            
         CJS    0            
         VJS     .75         
         MJS     .333        
          TF    1.700000E-12 
         XTF   10            
         VTF    5            
         ITF     .7          
         PTF   50            
          TR   50.000000E-09 
         XTB    -.25         
         XTI     .035        
          KF    0            
          AF    1            
          CN    2.42         
           D     .87         


**** 03/16/24 20:03:36 *** PSpice 23.1.0 (15 November 2023) *** ID# 0 ********

 ** Profile: "SCHEMATIC1-Impedance"  [ C:\VCO-transmitter\PSpice-Ouput-Impedance\output-impedance-PSpiceFiles\SCHEMATIC1\Impedance.si


 ****     SMALL SIGNAL BIAS SOLUTION       TEMPERATURE =   27.000 DEG C


******************************************************************************



 NODE   VOLTAGE     NODE   VOLTAGE     NODE   VOLTAGE     NODE   VOLTAGE


(N47525)    5.0000 (N47583)   -4.1627 (N47589)    5.0000 (N47723)    -.8348     

(N47869)   -5.0000 (N48213)    0.0000 (N48349)    0.0000 (X_Qi1.1)   -4.1627    

(X_Qi1.2)   -4.1627                   (X_Qi1.3)   -5.0000                       

(X_Qi2.1)   -4.1627                   (X_Qi2.2)    -.8348                       

(X_Qi2.3)   -5.0000                   (X_Qm1.1) 155.6E-18                       

(X_Qm1.2)    5.0000                   (X_Qm1.3)    -.8348                       

(X_Qi1.10)   -4.1627                  (X_Qi1.20)   -4.1627                      

(X_Qi1.30)   -5.0000                  (X_Qi2.10)   -4.1627                      

(X_Qi2.20)    -.8348                  (X_Qi2.30)   -5.0000                      

(X_Qm1.10) 155.6E-18                  (X_Qm1.20)    5.0000                      

(X_Qm1.30)    -.8348                  




    VOLTAGE SOURCE CURRENTS
    NAME         CURRENT

    V_V9        -2.165E-03
    V_V11        2.172E-03
    V_V12        0.000E+00

    TOTAL POWER DISSIPATION   2.17E-02  WATTS


ERROR(ORPSIM-16588): Simulation cannot complete because time points allowed for PSpice A/D Basics have been used up. To simulate this circuit, upgrade to a higher license.


ABORTING SIMULATION
**** 03/16/24 20:03:36 *** PSpice 23.1.0 (15 November 2023) *** ID# 0 ********

 ** Profile: "SCHEMATIC1-Impedance"  [ C:\VCO-transmitter\PSpice-Ouput-Impedance\output-impedance-PSpiceFiles\SCHEMATIC1\Impedance.si


 ****     JOB STATISTICS SUMMARY


******************************************************************************



Node counts:
  Top level (NUNODS)                =           8
  External (NCNODS)                 =          26
  Total (NUMNOD)                    =          35

Total device count (NUMEL)          =          58
  Capacitors (C)                    =          12
  Inductors (L)                     =          19
  BJTs (Q)                          =           3
  Resistors (R)                     =           2
  Voltage Sources (V)               =           3

Number of subcircuits (X)           =           3

Matrix statistics:
  Matrix size (NSTOP)               =          57
  Initial no. elements (NTTAR)      =         194
  No. elements w/ fillin (NTTBR)    =         304
  No. fillins (IFILL)               =         110
  No. overflows (NTTOV)             =         171
  No. LU operations (IOPS)          =        3015
  Percent sparsity (PERSPA)         =      90.643

Analysis statistics:
  No. total time points (NUMTTP)    =           0
  No. rejected time points (NUMRTP) =           0
  No. iterations (NUMNIT)           =           0

Size of Probe file                  =     4163739
Load Threads                        =           4

Runtime statistics:                       Seconds      Iterations
  Matrix load                       =         .02
  Matrix solution                   =        0.00               2
  Readin                            =         .02
  General setup                     =        0.00
  CMI setup                     =        0.00
  Setup                             =        0.00
  DC sweep                          =        0.00               0
  Bias point                        =         .02               8
  AC and noise                      =        0.00           10001
  Total transient analysis          =        0.00
  Output                            =        0.00
  Overhead                          =         .08
  Total job time (using Solver 1)   =         .41
