
**** 06/08/24 18:56:29 ******* PSpice Lite (March 2016) ******* ID# 10813 ****

 ** Profile: "SCHEMATIC1-trans"  [ c:\vco-transmitter\oscillator\update-oscillator-design\updated-coll-pits-oscillator-design-pspicef


 ****     CIRCUIT DESCRIPTION


******************************************************************************




** Creating circuit file "trans.cir" 
** WARNING: THIS AUTOMATICALLY GENERATED FILE MAY BE OVERWRITTEN BY SUBSEQUENT SIMULATIONS

*Libraries: 
* Profile Libraries :
* Local Libraries :
* From [PSPICE NETLIST] section of C:\Users\mazz\cdssetup\OrCAD_PSpice\17.2.0\PSpice.ini file:
.lib "nomd.lib" 

*Analysis directives: 
.TRAN  0 5e-8 0 1e-11 
.OPTIONS ADVCONV
.PROBE64 V(alias(*)) I(alias(*)) W(alias(*)) D(alias(*)) NOISE(alias(*)) 
.INC "..\SCHEMATIC1.net" 



**** INCLUDING SCHEMATIC1.net ****
* source UPDATED-COLL-PITS-OSCILLATOR-DESIGN
.EXTERNAL OUTPUT Vout
L_Lp         N41434 N41294  1nH  
X_Qm1         N41434 0 N41608 BFP520/INF
X_Qi2         N41608 N41428 N41876 BFP520/INF
C_C1         N41608 N41434  3.4p  TC=0,0 
V_V9         N41294 0 8Vdc
R_Ri         N41428 N41294  4.275k TC=0,0 
C_C2         0 N41608  3.4p  TC=0,0 
X_Qi1         N41428 N41428 N41876 BFP520/INF
V_V11         N41876 0 -8Vdc
R_R1         0 VOUT  50 TC=0,0 
L_L1         0 N44705  1.0e-08  
C_C3         N44705 VOUT  2.1e-13  TC=0,0 
L_L2         N50998 N44705  2e-09  
C_C5         N41434 N50998  1m  TC=0,0 

**** RESUMING trans.cir ****
.END

**** 06/08/24 18:56:29 ******* PSpice Lite (March 2016) ******* ID# 10813 ****

 ** Profile: "SCHEMATIC1-trans"  [ c:\vco-transmitter\oscillator\update-oscillator-design\updated-coll-pits-oscillator-design-pspicef


 ****     BJT MODEL PARAMETERS


******************************************************************************




               BFP520          
               NPN             
       LEVEL    1            
          IS   15.000000E-18 
          BF  235            
          NF    1            
         VAF   25            
         IKF     .4          
         ISE   25.000000E-15 
          NE    2            
          BR    1.5          
          NR    1            
         VAR    2            
         IKR     .01         
         ISC   20.000000E-15 
         ISS    0            
          RB   11            
         RBM    7.5          
          RE     .6          
          RC    7.6          
         CJE  235.000000E-15 
         VJE     .958        
         MJE     .335        
         CJC   93.000000E-15 
         VJC     .661        
         MJC     .236        
        XCJC    1            
         CJS    0            
         VJS     .75         
         MJS     .333        
          TF    1.700000E-12 
         XTF   10            
         VTF    5            
         ITF     .7          
         PTF   50            
          TR   50.000000E-09 
         XTB    -.25         
         XTI     .035        
          KF    0            
          AF    1            
          CN    2.42         
           D     .87         


**** 06/08/24 18:56:29 ******* PSpice Lite (March 2016) ******* ID# 10813 ****

 ** Profile: "SCHEMATIC1-trans"  [ c:\vco-transmitter\oscillator\update-oscillator-design\updated-coll-pits-oscillator-design-pspicef


 ****     INITIAL TRANSIENT SOLUTION       TEMPERATURE =   27.000 DEG C


******************************************************************************



 NODE   VOLTAGE     NODE   VOLTAGE     NODE   VOLTAGE     NODE   VOLTAGE


( VOUT)    0.0000  (N41294)    8.0000 (N41428)   -7.1268 (N41434)    8.0000     

(N41608)    -.8708 (N41876)   -8.0000 (N44705)    0.0000 (N50998)    0.0000     

(X_Qi1.1)   -7.1268                   (X_Qi1.2)   -7.1268                       

(X_Qi1.3)   -8.0000                   (X_Qi2.1)   -7.1268                       

(X_Qi2.2)    -.8708                   (X_Qi2.3)   -8.0000                       

(X_Qm1.1)-41.42E-18                   (X_Qm1.2)    8.0000                       

(X_Qm1.3)    -.8708                   (X_Qi1.10)   -7.1268                      

(X_Qi1.20)   -7.1268                  (X_Qi1.30)   -8.0000                      

(X_Qi2.10)   -7.1268                  (X_Qi2.20)    -.8708                      

(X_Qi2.30)   -8.0000                  (X_Qm1.10)-41.42E-18                      

(X_Qm1.20)    8.0000                  (X_Qm1.30)    -.8708                  




    VOLTAGE SOURCE CURRENTS
    NAME         CURRENT

    V_V9        -8.387E-03
    V_V11        8.411E-03

    TOTAL POWER DISSIPATION   1.34E-01  WATTS



          JOB CONCLUDED

**** 06/08/24 18:56:29 ******* PSpice Lite (March 2016) ******* ID# 10813 ****

 ** Profile: "SCHEMATIC1-trans"  [ c:\vco-transmitter\oscillator\update-oscillator-design\updated-coll-pits-oscillator-design-pspicef


 ****     JOB STATISTICS SUMMARY


******************************************************************************



  Total job time (using Solver 1)   =        5.38
