
**** 03/03/24 19:59:05 *** PSpice 23.1.0 (15 November 2023) *** ID# 0 ********

 ** Profile: "SCHEMATIC1-bias"  [ C:\VCO-transmitter\Update-Oscillator-Design\Updated-Coll-pits-Oscillator-Design-PSpiceFiles\SCHEMAT


 ****     CIRCUIT DESCRIPTION


******************************************************************************




** Creating circuit file "bias.cir" 
** WARNING: THIS AUTOMATICALLY GENERATED FILE MAY BE OVERWRITTEN BY SUBSEQUENT SIMULATIONS

*Libraries: 
* Profile Libraries :
* Local Libraries :
* From [PSPICE NETLIST] section of C:\Users\mazz\AppData\Roaming\SPB_Data\cdssetup\OrCAD_PSpice\23.1.0\PSpice.ini file:
.lib "nom.lib" 

*Analysis directives: 
.OPTIONS ADVCONV
.PROBE64 V(alias(*)) I(alias(*)) W(alias(*)) D(alias(*)) NOISE(alias(*)) 
.INC "..\SCHEMATIC1.net" 



**** INCLUDING SCHEMATIC1.net ****
* source UPDATED-COLL-PITS-OSCILLATOR-DESIGN
.EXTERNAL OUTPUT Vout_sec
L_Lp         N41424 N41294  1nH  
X_Qm1         N41424 0 N41608 BFP520/INF
X_Qi2         N41608 N41428 N41876 BFP520/INF
C_C1         N41608 N41424  2.5p  TC=0,0 
V_V9         N41294 0 5Vdc
R_Ri         N41428 N41294  9.3k TC=0,0 
C_C3         N41424 VOUT_SEC  1m  TC=0,0 
C_C2         0 N41608  2.5p  TC=0,0 
R_Rp         N41424 N41294  50k TC=0,0 
X_Qi1         N41428 N41428 N41876 BFP520/INF
R_Rload         0 VOUT_SEC  70 TC=0,0 
V_V11         N41876 0 -5Vdc

**** RESUMING bias.cir ****
.END

**** 03/03/24 19:59:05 *** PSpice 23.1.0 (15 November 2023) *** ID# 0 ********

 ** Profile: "SCHEMATIC1-bias"  [ C:\VCO-transmitter\Update-Oscillator-Design\Updated-Coll-pits-Oscillator-Design-PSpiceFiles\SCHEMAT


 ****     BJT MODEL PARAMETERS


******************************************************************************




               BFP520          
               NPN             
       LEVEL    1            
          IS   15.000000E-18 
          BF  235            
          NF    1            
         VAF   25            
         IKF     .4          
         ISE   25.000000E-15 
          NE    2            
          BR    1.5          
          NR    1            
         VAR    2            
         IKR     .01         
         ISC   20.000000E-15 
         ISS    0            
          RB   11            
         RBM    7.5          
          RE     .6          
          RC    7.6          
         CJE  235.000000E-15 
         VJE     .958        
         MJE     .335        
         CJC   93.000000E-15 
         VJC     .661        
         MJC     .236        
        XCJC    1            
         CJS    0            
         VJS     .75         
         MJS     .333        
          TF    1.700000E-12 
         XTF   10            
         VTF    5            
         ITF     .7          
         PTF   50            
          TR   50.000000E-09 
         XTB    -.25         
         XTI     .035        
          KF    0            
          AF    1            
          CN    2.42         
           D     .87         


**** 03/03/24 19:59:05 *** PSpice 23.1.0 (15 November 2023) *** ID# 0 ********

 ** Profile: "SCHEMATIC1-bias"  [ C:\VCO-transmitter\Update-Oscillator-Design\Updated-Coll-pits-Oscillator-Design-PSpiceFiles\SCHEMAT


 ****     SMALL SIGNAL BIAS SOLUTION       TEMPERATURE =   27.000 DEG C


******************************************************************************



 NODE   VOLTAGE     NODE   VOLTAGE     NODE   VOLTAGE     NODE   VOLTAGE


(N41294)    5.0000 (N41424)    5.0000 (N41428)   -4.1627 (N41608)    -.8348     

(N41876)   -5.0000 (X_Qi1.1)   -4.1627                   (X_Qi1.2)   -4.1627    

(X_Qi1.3)   -5.0000                   (X_Qi2.1)   -4.1627                       

(X_Qi2.2)    -.8348                   (X_Qi2.3)   -5.0000                       

(X_Qm1.1)-52.80E-18                   (X_Qm1.2)    5.0000                       

(X_Qm1.3)    -.8348                   (VOUT_SEC)    0.0000                      

(X_Qi1.10)   -4.1627                  (X_Qi1.20)   -4.1627                      

(X_Qi1.30)   -5.0000                  (X_Qi2.10)   -4.1627                      

(X_Qi2.20)    -.8348                  (X_Qi2.30)   -5.0000                      

(X_Qm1.10)-52.80E-18                  (X_Qm1.20)    5.0000                      

(X_Qm1.30)    -.8348                  




    VOLTAGE SOURCE CURRENTS
    NAME         CURRENT

    V_V9        -2.165E-03
    V_V11        2.172E-03

    TOTAL POWER DISSIPATION   2.17E-02  WATTS



          JOB CONCLUDED

**** 03/03/24 19:59:05 *** PSpice 23.1.0 (15 November 2023) *** ID# 0 ********

 ** Profile: "SCHEMATIC1-bias"  [ C:\VCO-transmitter\Update-Oscillator-Design\Updated-Coll-pits-Oscillator-Design-PSpiceFiles\SCHEMAT


 ****     JOB STATISTICS SUMMARY


******************************************************************************



  Total job time (using Solver 1)   =         .05
