
**** 03/17/24 18:27:05 *** PSpice 23.1.0 (15 November 2023) *** ID# 0 ********

 ** Profile: "SCHEMATIC1-param-sweep"  [ C:\VCO-transmitter\PSpice-Load-Sweep\load-sweep-pspicefiles\schematic1\param-sweep.sim ] 


 ****     CIRCUIT DESCRIPTION


******************************************************************************




** Creating circuit file "param-sweep.cir" 
** WARNING: THIS AUTOMATICALLY GENERATED FILE MAY BE OVERWRITTEN BY SUBSEQUENT SIMULATIONS

*Libraries: 
* Profile Libraries :
* Local Libraries :
* From [PSPICE NETLIST] section of C:\Users\mazz\AppData\Roaming\SPB_Data\cdssetup\OrCAD_PSpice\23.1.0\PSpice.ini file:
.lib "nom.lib" 

*Analysis directives: 
.TRAN  0 8e-8 0 1e-11 
.STEP LIN PARAM RL 540 1240 100 
.OPTIONS ADVCONV
.PROBE64 V(alias(*)) I(alias(*)) W(alias(*)) D(alias(*)) NOISE(alias(*)) 
.INC "..\SCHEMATIC1.net" 



**** INCLUDING SCHEMATIC1.net ****
* source LOAD-SWEEP
.EXTERNAL OUTPUT output
C_C5         N46758 OUTPUT  1m  TC=0,0 
C_C1         N46860 N46758  3p  TC=0,0 
R_Ri         N46752 N46694  7.15k TC=0,0 
V_V11         N46992 0 -10Vdc
X_Qm1         N46758 0 N46860 BFP520/INF
X_Qi2         N46860 N46752 N46992 BFP520/INF
C_C2         0 N46860  3p  TC=0,0 
X_Qi1         N46752 N46752 N46992 BFP520/INF
V_V9         N46694 0 10Vdc
L_Lp         N46758 N46694  1nH  
R_RL         0 OUTPUT  {RL} TC=0,0 
.PARAM  rl=100

**** RESUMING param-sweep.cir ****
.END

**** 03/17/24 18:27:05 *** PSpice 23.1.0 (15 November 2023) *** ID# 0 ********

 ** Profile: "SCHEMATIC1-param-sweep"  [ C:\VCO-transmitter\PSpice-Load-Sweep\load-sweep-pspicefiles\schematic1\param-sweep.sim ] 


 ****     BJT MODEL PARAMETERS


******************************************************************************




               BFP520          
               NPN             
       LEVEL    1            
          IS   15.000000E-18 
          BF  235            
          NF    1            
         VAF   25            
         IKF     .4          
         ISE   25.000000E-15 
          NE    2            
          BR    1.5          
          NR    1            
         VAR    2            
         IKR     .01         
         ISC   20.000000E-15 
         ISS    0            
          RB   11            
         RBM    7.5          
          RE     .6          
          RC    7.6          
         CJE  235.000000E-15 
         VJE     .958        
         MJE     .335        
         CJC   93.000000E-15 
         VJC     .661        
         MJC     .236        
        XCJC    1            
         CJS    0            
         VJS     .75         
         MJS     .333        
          TF    1.700000E-12 
         XTF   10            
         VTF    5            
         ITF     .7          
         PTF   50            
          TR   50.000000E-09 
         XTB    -.25         
         XTI     .035        
          KF    0            
          AF    1            
          CN    2.42         
           D     .87         


**** 03/17/24 18:27:05 *** PSpice 23.1.0 (15 November 2023) *** ID# 0 ********

 ** Profile: "SCHEMATIC1-param-sweep"  [ C:\VCO-transmitter\PSpice-Load-Sweep\load-sweep-pspicefiles\schematic1\param-sweep.sim ] 


 ****     INITIAL TRANSIENT SOLUTION       TEMPERATURE =   27.000 DEG C

 ****     CURRENT STEP                     PARAM RL =  540   


******************************************************************************



 NODE   VOLTAGE     NODE   VOLTAGE     NODE   VOLTAGE     NODE   VOLTAGE


(N46694)   10.0000 (N46752)   -9.1349 (N46758)   10.0000 (N46860)    -.8630     

(N46992)  -10.0000 (OUTPUT)    0.0000 (X_Qi1.1)   -9.1349                       

(X_Qi1.2)   -9.1349                   (X_Qi1.3)  -10.0000                       

(X_Qi2.1)   -9.1349                   (X_Qi2.2)    -.8630                       

(X_Qi2.3)  -10.0000                   (X_Qm1.1) 85.00E-18                       

(X_Qm1.2)   10.0000                   (X_Qm1.3)    -.8630                       

(X_Qi1.10)   -9.1349                  (X_Qi1.20)   -9.1349                      

(X_Qi1.30)  -10.0000                  (X_Qi2.10)   -9.1349                      

(X_Qi2.20)    -.8630                  (X_Qi2.30)  -10.0000                      

(X_Qm1.10) 85.00E-18                  (X_Qm1.20)   10.0000                      

(X_Qm1.30)    -.8630                  




    VOLTAGE SOURCE CURRENTS
    NAME         CURRENT

    V_V11        6.714E-03
    V_V9        -6.696E-03

    TOTAL POWER DISSIPATION   1.34E-01  WATTS


**** 03/17/24 18:27:05 *** PSpice 23.1.0 (15 November 2023) *** ID# 0 ********

 ** Profile: "SCHEMATIC1-param-sweep"  [ C:\VCO-transmitter\PSpice-Load-Sweep\load-sweep-pspicefiles\schematic1\param-sweep.sim ] 


 ****     INITIAL TRANSIENT SOLUTION       TEMPERATURE =   27.000 DEG C

 ****     CURRENT STEP                     PARAM RL =  640   


******************************************************************************



 NODE   VOLTAGE     NODE   VOLTAGE     NODE   VOLTAGE     NODE   VOLTAGE


(N46694)   10.0000 (N46752)   -9.1349 (N46758)   10.0000 (N46860)    -.8630     

(N46992)  -10.0000 (OUTPUT)    0.0000 (X_Qi1.1)   -9.1349                       

(X_Qi1.2)   -9.1349                   (X_Qi1.3)  -10.0000                       

(X_Qi2.1)   -9.1349                   (X_Qi2.2)    -.8630                       

(X_Qi2.3)  -10.0000                   (X_Qm1.1) 85.00E-18                       

(X_Qm1.2)   10.0000                   (X_Qm1.3)    -.8630                       

(X_Qi1.10)   -9.1349                  (X_Qi1.20)   -9.1349                      

(X_Qi1.30)  -10.0000                  (X_Qi2.10)   -9.1349                      

(X_Qi2.20)    -.8630                  (X_Qi2.30)  -10.0000                      

(X_Qm1.10) 85.00E-18                  (X_Qm1.20)   10.0000                      

(X_Qm1.30)    -.8630                  




    VOLTAGE SOURCE CURRENTS
    NAME         CURRENT

    V_V11        6.714E-03
    V_V9        -6.696E-03

    TOTAL POWER DISSIPATION   1.34E-01  WATTS


**** 03/17/24 18:27:05 *** PSpice 23.1.0 (15 November 2023) *** ID# 0 ********

 ** Profile: "SCHEMATIC1-param-sweep"  [ C:\VCO-transmitter\PSpice-Load-Sweep\load-sweep-pspicefiles\schematic1\param-sweep.sim ] 


 ****     INITIAL TRANSIENT SOLUTION       TEMPERATURE =   27.000 DEG C

 ****     CURRENT STEP                     PARAM RL =  740   


******************************************************************************



 NODE   VOLTAGE     NODE   VOLTAGE     NODE   VOLTAGE     NODE   VOLTAGE


(N46694)   10.0000 (N46752)   -9.1349 (N46758)   10.0000 (N46860)    -.8630     

(N46992)  -10.0000 (OUTPUT)    0.0000 (X_Qi1.1)   -9.1349                       

(X_Qi1.2)   -9.1349                   (X_Qi1.3)  -10.0000                       

(X_Qi2.1)   -9.1349                   (X_Qi2.2)    -.8630                       

(X_Qi2.3)  -10.0000                   (X_Qm1.1) 85.00E-18                       

(X_Qm1.2)   10.0000                   (X_Qm1.3)    -.8630                       

(X_Qi1.10)   -9.1349                  (X_Qi1.20)   -9.1349                      

(X_Qi1.30)  -10.0000                  (X_Qi2.10)   -9.1349                      

(X_Qi2.20)    -.8630                  (X_Qi2.30)  -10.0000                      

(X_Qm1.10) 85.00E-18                  (X_Qm1.20)   10.0000                      

(X_Qm1.30)    -.8630                  




    VOLTAGE SOURCE CURRENTS
    NAME         CURRENT

    V_V11        6.714E-03
    V_V9        -6.696E-03

    TOTAL POWER DISSIPATION   1.34E-01  WATTS


**** 03/17/24 18:27:05 *** PSpice 23.1.0 (15 November 2023) *** ID# 0 ********

 ** Profile: "SCHEMATIC1-param-sweep"  [ C:\VCO-transmitter\PSpice-Load-Sweep\load-sweep-pspicefiles\schematic1\param-sweep.sim ] 


 ****     INITIAL TRANSIENT SOLUTION       TEMPERATURE =   27.000 DEG C

 ****     CURRENT STEP                     PARAM RL =  840   


******************************************************************************



 NODE   VOLTAGE     NODE   VOLTAGE     NODE   VOLTAGE     NODE   VOLTAGE


(N46694)   10.0000 (N46752)   -9.1349 (N46758)   10.0000 (N46860)    -.8630     

(N46992)  -10.0000 (OUTPUT)    0.0000 (X_Qi1.1)   -9.1349                       

(X_Qi1.2)   -9.1349                   (X_Qi1.3)  -10.0000                       

(X_Qi2.1)   -9.1349                   (X_Qi2.2)    -.8630                       

(X_Qi2.3)  -10.0000                   (X_Qm1.1) 85.00E-18                       

(X_Qm1.2)   10.0000                   (X_Qm1.3)    -.8630                       

(X_Qi1.10)   -9.1349                  (X_Qi1.20)   -9.1349                      

(X_Qi1.30)  -10.0000                  (X_Qi2.10)   -9.1349                      

(X_Qi2.20)    -.8630                  (X_Qi2.30)  -10.0000                      

(X_Qm1.10) 85.00E-18                  (X_Qm1.20)   10.0000                      

(X_Qm1.30)    -.8630                  




    VOLTAGE SOURCE CURRENTS
    NAME         CURRENT

    V_V11        6.714E-03
    V_V9        -6.696E-03

    TOTAL POWER DISSIPATION   1.34E-01  WATTS


**** 03/17/24 18:27:05 *** PSpice 23.1.0 (15 November 2023) *** ID# 0 ********

 ** Profile: "SCHEMATIC1-param-sweep"  [ C:\VCO-transmitter\PSpice-Load-Sweep\load-sweep-pspicefiles\schematic1\param-sweep.sim ] 


 ****     INITIAL TRANSIENT SOLUTION       TEMPERATURE =   27.000 DEG C

 ****     CURRENT STEP                     PARAM RL =  940   


******************************************************************************



 NODE   VOLTAGE     NODE   VOLTAGE     NODE   VOLTAGE     NODE   VOLTAGE


(N46694)   10.0000 (N46752)   -9.1349 (N46758)   10.0000 (N46860)    -.8630     

(N46992)  -10.0000 (OUTPUT)    0.0000 (X_Qi1.1)   -9.1349                       

(X_Qi1.2)   -9.1349                   (X_Qi1.3)  -10.0000                       

(X_Qi2.1)   -9.1349                   (X_Qi2.2)    -.8630                       

(X_Qi2.3)  -10.0000                   (X_Qm1.1) 85.00E-18                       

(X_Qm1.2)   10.0000                   (X_Qm1.3)    -.8630                       

(X_Qi1.10)   -9.1349                  (X_Qi1.20)   -9.1349                      

(X_Qi1.30)  -10.0000                  (X_Qi2.10)   -9.1349                      

(X_Qi2.20)    -.8630                  (X_Qi2.30)  -10.0000                      

(X_Qm1.10) 85.00E-18                  (X_Qm1.20)   10.0000                      

(X_Qm1.30)    -.8630                  




    VOLTAGE SOURCE CURRENTS
    NAME         CURRENT

    V_V11        6.714E-03
    V_V9        -6.696E-03

    TOTAL POWER DISSIPATION   1.34E-01  WATTS


**** 03/17/24 18:27:05 *** PSpice 23.1.0 (15 November 2023) *** ID# 0 ********

 ** Profile: "SCHEMATIC1-param-sweep"  [ C:\VCO-transmitter\PSpice-Load-Sweep\load-sweep-pspicefiles\schematic1\param-sweep.sim ] 


 ****     INITIAL TRANSIENT SOLUTION       TEMPERATURE =   27.000 DEG C

 ****     CURRENT STEP                     PARAM RL =    1.0400E+03


******************************************************************************



 NODE   VOLTAGE     NODE   VOLTAGE     NODE   VOLTAGE     NODE   VOLTAGE


(N46694)   10.0000 (N46752)   -9.1349 (N46758)   10.0000 (N46860)    -.8630     

(N46992)  -10.0000 (OUTPUT)    0.0000 (X_Qi1.1)   -9.1349                       

(X_Qi1.2)   -9.1349                   (X_Qi1.3)  -10.0000                       

(X_Qi2.1)   -9.1349                   (X_Qi2.2)    -.8630                       

(X_Qi2.3)  -10.0000                   (X_Qm1.1) 85.00E-18                       

(X_Qm1.2)   10.0000                   (X_Qm1.3)    -.8630                       

(X_Qi1.10)   -9.1349                  (X_Qi1.20)   -9.1349                      

(X_Qi1.30)  -10.0000                  (X_Qi2.10)   -9.1349                      

(X_Qi2.20)    -.8630                  (X_Qi2.30)  -10.0000                      

(X_Qm1.10) 85.00E-18                  (X_Qm1.20)   10.0000                      

(X_Qm1.30)    -.8630                  




    VOLTAGE SOURCE CURRENTS
    NAME         CURRENT

    V_V11        6.714E-03
    V_V9        -6.696E-03

    TOTAL POWER DISSIPATION   1.34E-01  WATTS


**** 03/17/24 18:27:05 *** PSpice 23.1.0 (15 November 2023) *** ID# 0 ********

 ** Profile: "SCHEMATIC1-param-sweep"  [ C:\VCO-transmitter\PSpice-Load-Sweep\load-sweep-pspicefiles\schematic1\param-sweep.sim ] 


 ****     INITIAL TRANSIENT SOLUTION       TEMPERATURE =   27.000 DEG C

 ****     CURRENT STEP                     PARAM RL =    1.1400E+03


******************************************************************************



 NODE   VOLTAGE     NODE   VOLTAGE     NODE   VOLTAGE     NODE   VOLTAGE


(N46694)   10.0000 (N46752)   -9.1349 (N46758)   10.0000 (N46860)    -.8630     

(N46992)  -10.0000 (OUTPUT)    0.0000 (X_Qi1.1)   -9.1349                       

(X_Qi1.2)   -9.1349                   (X_Qi1.3)  -10.0000                       

(X_Qi2.1)   -9.1349                   (X_Qi2.2)    -.8630                       

(X_Qi2.3)  -10.0000                   (X_Qm1.1) 85.00E-18                       

(X_Qm1.2)   10.0000                   (X_Qm1.3)    -.8630                       

(X_Qi1.10)   -9.1349                  (X_Qi1.20)   -9.1349                      

(X_Qi1.30)  -10.0000                  (X_Qi2.10)   -9.1349                      

(X_Qi2.20)    -.8630                  (X_Qi2.30)  -10.0000                      

(X_Qm1.10) 85.00E-18                  (X_Qm1.20)   10.0000                      

(X_Qm1.30)    -.8630                  




    VOLTAGE SOURCE CURRENTS
    NAME         CURRENT

    V_V11        6.714E-03
    V_V9        -6.696E-03

    TOTAL POWER DISSIPATION   1.34E-01  WATTS


**** 03/17/24 18:27:05 *** PSpice 23.1.0 (15 November 2023) *** ID# 0 ********

 ** Profile: "SCHEMATIC1-param-sweep"  [ C:\VCO-transmitter\PSpice-Load-Sweep\load-sweep-pspicefiles\schematic1\param-sweep.sim ] 


 ****     INITIAL TRANSIENT SOLUTION       TEMPERATURE =   27.000 DEG C

 ****     CURRENT STEP                     PARAM RL =    1.2400E+03


******************************************************************************



 NODE   VOLTAGE     NODE   VOLTAGE     NODE   VOLTAGE     NODE   VOLTAGE


(N46694)   10.0000 (N46752)   -9.1349 (N46758)   10.0000 (N46860)    -.8630     

(N46992)  -10.0000 (OUTPUT)    0.0000 (X_Qi1.1)   -9.1349                       

(X_Qi1.2)   -9.1349                   (X_Qi1.3)  -10.0000                       

(X_Qi2.1)   -9.1349                   (X_Qi2.2)    -.8630                       

(X_Qi2.3)  -10.0000                   (X_Qm1.1) 85.00E-18                       

(X_Qm1.2)   10.0000                   (X_Qm1.3)    -.8630                       

(X_Qi1.10)   -9.1349                  (X_Qi1.20)   -9.1349                      

(X_Qi1.30)  -10.0000                  (X_Qi2.10)   -9.1349                      

(X_Qi2.20)    -.8630                  (X_Qi2.30)  -10.0000                      

(X_Qm1.10) 85.00E-18                  (X_Qm1.20)   10.0000                      

(X_Qm1.30)    -.8630                  




    VOLTAGE SOURCE CURRENTS
    NAME         CURRENT

    V_V11        6.714E-03
    V_V9        -6.696E-03

    TOTAL POWER DISSIPATION   1.34E-01  WATTS



          JOB CONCLUDED

**** 03/17/24 18:27:05 *** PSpice 23.1.0 (15 November 2023) *** ID# 0 ********

 ** Profile: "SCHEMATIC1-param-sweep"  [ C:\VCO-transmitter\PSpice-Load-Sweep\load-sweep-pspicefiles\schematic1\param-sweep.sim ] 


 ****     JOB STATISTICS SUMMARY

 ****     CURRENT STEP                     PARAM RL =    1.2400E+03


******************************************************************************



  Total job time (using Solver 1)   =       58.83
