
**** 03/22/24 15:15:04 ******* PSpice Lite (March 2016) ******* ID# 10813 ****

 ** Profile: "SCHEMATIC1-trans"  [ C:\VCO-transmitter\Oscillator-Final-Design\collpits-oscillator-final-design-pspicefiles\schematic1


 ****     CIRCUIT DESCRIPTION


******************************************************************************




** Creating circuit file "trans.cir" 
** WARNING: THIS AUTOMATICALLY GENERATED FILE MAY BE OVERWRITTEN BY SUBSEQUENT SIMULATIONS

*Libraries: 
* Profile Libraries :
* Local Libraries :
* From [PSPICE NETLIST] section of C:\Users\mazz\cdssetup\OrCAD_PSpice\17.2.0\PSpice.ini file:
.lib "nomd.lib" 

*Analysis directives: 
.TRAN  0 8e-8 0 2e-11 
.OPTIONS ADVCONV
.PROBE64 V(alias(*)) I(alias(*)) W(alias(*)) D(alias(*)) NOISE(alias(*)) 
.INC "..\SCHEMATIC1.net" 



**** INCLUDING SCHEMATIC1.net ****
* source COLLPITS-OSCILLATOR-FINAL-DESIGN
.EXTERNAL OUTPUT Vout_sec
V_V9         N39003 0 5Vdc
X_Qi2         N39267 N39115 N39533 BFP520/INF
R_Rload         0 VOUT_SEC  100 TC=0,0 
V_V11         N39533 0 -5Vdc
R_Ri         N39115 N39003  6k TC=0,0 
L_Lp         N39119 N39003  1nH  
C_C1         N39267 N39119  3.3p  TC=0,0 
C_C2         0 N39267  3.3p  TC=0,0 
X_Qi1         N39115 N39115 N39533 BFP520/INF
X_Qm1         N39119 0 N39267 BFP520/INF
C_C3         N39119 VOUT_SEC  1m  TC=0,0 

**** RESUMING trans.cir ****
.END

**** 03/22/24 15:15:04 ******* PSpice Lite (March 2016) ******* ID# 10813 ****

 ** Profile: "SCHEMATIC1-trans"  [ C:\VCO-transmitter\Oscillator-Final-Design\collpits-oscillator-final-design-pspicefiles\schematic1


 ****     BJT MODEL PARAMETERS


******************************************************************************




               BFP520          
               NPN             
       LEVEL    1            
          IS   15.000000E-18 
          BF  235            
          NF    1            
         VAF   25            
         IKF     .4          
         ISE   25.000000E-15 
          NE    2            
          BR    1.5          
          NR    1            
         VAR    2            
         IKR     .01         
         ISC   20.000000E-15 
         ISS    0            
          RB   11            
         RBM    7.5          
          RE     .6          
          RC    7.6          
         CJE  235.000000E-15 
         VJE     .958        
         MJE     .335        
         CJC   93.000000E-15 
         VJC     .661        
         MJC     .236        
        XCJC    1            
         CJS    0            
         VJS     .75         
         MJS     .333        
          TF    1.700000E-12 
         XTF   10            
         VTF    5            
         ITF     .7          
         PTF   50            
          TR   50.000000E-09 
         XTB    -.25         
         XTI     .035        
          KF    0            
          AF    1            
          CN    2.42         
           D     .87         


**** 03/22/24 15:15:04 ******* PSpice Lite (March 2016) ******* ID# 10813 ****

 ** Profile: "SCHEMATIC1-trans"  [ C:\VCO-transmitter\Oscillator-Final-Design\collpits-oscillator-final-design-pspicefiles\schematic1


 ****     INITIAL TRANSIENT SOLUTION       TEMPERATURE =   27.000 DEG C


******************************************************************************



 NODE   VOLTAGE     NODE   VOLTAGE     NODE   VOLTAGE     NODE   VOLTAGE


(N39003)    5.0000 (N39115)   -4.1507 (N39119)    5.0000 (N39267)    -.8467     

(N39533)   -5.0000 (X_Qi1.1)   -4.1507                   (X_Qi1.2)   -4.1507    

(X_Qi1.3)   -5.0000                   (X_Qi2.1)   -4.1507                       

(X_Qi2.2)    -.8467                   (X_Qi2.3)   -5.0000                       

(X_Qm1.1)-26.67E-18                   (X_Qm1.2)    5.0000                       

(X_Qm1.3)    -.8467                   (VOUT_SEC)    0.0000                      

(X_Qi1.10)   -4.1507                  (X_Qi1.20)   -4.1507                      

(X_Qi1.30)   -5.0000                  (X_Qi2.10)   -4.1507                      

(X_Qi2.20)    -.8467                  (X_Qi2.30)   -5.0000                      

(X_Qm1.10)-26.67E-18                  (X_Qm1.20)    5.0000                      

(X_Qm1.30)    -.8467                  




    VOLTAGE SOURCE CURRENTS
    NAME         CURRENT

    V_V9        -3.348E-03
    V_V11        3.358E-03

    TOTAL POWER DISSIPATION   3.35E-02  WATTS



          JOB CONCLUDED

**** 03/22/24 15:15:04 ******* PSpice Lite (March 2016) ******* ID# 10813 ****

 ** Profile: "SCHEMATIC1-trans"  [ C:\VCO-transmitter\Oscillator-Final-Design\collpits-oscillator-final-design-pspicefiles\schematic1


 ****     JOB STATISTICS SUMMARY


******************************************************************************



  Total job time (using Solver 1)   =        1.88
