Freq.	V(v1)/I(V1)
3.00000000000000e+09	-3.47453688689125e+02,-6.27277742772175e+02
3.00100100100100e+09	-3.48741149437222e+02,-6.27744459732329e+02
3.00200200200200e+09	-3.50033244160514e+02,-6.28208916886019e+02
3.00300300300300e+09	-3.51329982365112e+02,-6.28671086476801e+02
3.00400400400400e+09	-3.52631373458322e+02,-6.29130940548349e+02
3.00500500500500e+09	-3.53937426746644e+02,-6.29588450943788e+02
3.00600600600601e+09	-3.55248151433722e+02,-6.30043589305022e+02
3.00700700700701e+09	-3.56563556618299e+02,-6.30496327072095e+02
3.00800800800801e+09	-3.57883651292140e+02,-6.30946635482560e+02
3.00900900900901e+09	-3.59208444337926e+02,-6.31394485570843e+02
3.01001001001001e+09	-3.60537944527147e+02,-6.31839848167646e+02
3.01101101101101e+09	-3.61872160517936e+02,-6.32282693899328e+02
3.01201201201201e+09	-3.63211100852928e+02,-6.32722993187341e+02
3.01301301301301e+09	-3.64554773957051e+02,-6.33160716247639e+02
3.01401401401401e+09	-3.65903188135326e+02,-6.33595833090123e+02
3.01501501501501e+09	-3.67256351570643e+02,-6.34028313518106e+02
3.01601601601601e+09	-3.68614272321489e+02,-6.34458127127769e+02
3.01701701701701e+09	-3.69976958319678e+02,-6.34885243307646e+02
3.01801801801802e+09	-3.71344417368057e+02,-6.35309631238130e+02
3.01901901901902e+09	-3.72716657138174e+02,-6.35731259890977e+02
3.02002002002002e+09	-3.74093685167930e+02,-6.36150098028840e+02
3.02102102102102e+09	-3.75475508859228e+02,-6.36566114204817e+02
3.02202202202202e+09	-3.76862135475566e+02,-6.36979276762010e+02
3.02302302302302e+09	-3.78253572139623e+02,-6.37389553833100e+02
3.02402402402402e+09	-3.79649825830836e+02,-6.37796913339953e+02
3.02502502502502e+09	-3.81050903382921e+02,-6.38201322993220e+02
3.02602602602602e+09	-3.82456811481398e+02,-6.38602750291977e+02
3.02702702702702e+09	-3.83867556661098e+02,-6.39001162523380e+02
3.02802802802802e+09	-3.85283145303612e+02,-6.39396526762319e+02
3.02902902902903e+09	-3.86703583634753e+02,-6.39788809871122e+02
3.03003003003003e+09	-3.88128877721975e+02,-6.40177978499248e+02
3.03103103103103e+09	-3.89559033471778e+02,-6.40563999083028e+02
3.03203203203203e+09	-3.90994056627079e+02,-6.40946837845402e+02
3.03303303303303e+09	-3.92433952764578e+02,-6.41326460795697e+02
3.03403403403403e+09	-3.93878727292082e+02,-6.41702833729410e+02
3.03503503503503e+09	-3.95328385445808e+02,-6.42075922228023e+02
3.03603603603603e+09	-3.96782932287689e+02,-6.42445691658843e+02
3.03703703703703e+09	-3.98242372702620e+02,-6.42812107174850e+02
3.03803803803803e+09	-3.99706711395696e+02,-6.43175133714582e+02
3.03903903903903e+09	-4.01175952889432e+02,-6.43534736002035e+02
3.04004004004004e+09	-4.02650101520966e+02,-6.43890878546599e+02
3.04104104104104e+09	-4.04129161439212e+02,-6.44243525643000e+02
3.04204204204204e+09	-4.05613136602017e+02,-6.44592641371284e+02
3.04304304304304e+09	-4.07102030773282e+02,-6.44938189596817e+02
3.04404404404404e+09	-4.08595847520070e+02,-6.45280133970314e+02
3.04504504504504e+09	-4.10094590209673e+02,-6.45618437927896e+02
3.04604604604604e+09	-4.11598262006673e+02,-6.45953064691166e+02
3.04704704704704e+09	-4.13106865869978e+02,-6.46283977267325e+02
3.04804804804804e+09	-4.14620404549829e+02,-6.46611138449306e+02
3.04904904904904e+09	-4.16138880584779e+02,-6.46934510815935e+02
3.05005005005004e+09	-4.17662296298686e+02,-6.47254056732138e+02
3.05105105105104e+09	-4.19190653797608e+02,-6.47569738349145e+02
3.05205205205205e+09	-4.20723954966786e+02,-6.47881517604767e+02
3.05305305305305e+09	-4.22262201467481e+02,-6.48189356223657e+02
3.05405405405405e+09	-4.23805394733891e+02,-6.48493215717641e+02
3.05505505505505e+09	-4.25353535969993e+02,-6.48793057386058e+02
3.05605605605605e+09	-4.26906626146373e+02,-6.49088842316141e+02
3.05705705705705e+09	-4.28464665997034e+02,-6.49380531383417e+02
3.05805805805805e+09	-4.30027656016211e+02,-6.49668085252173e+02
3.05905905905905e+09	-4.31595596455100e+02,-6.49951464375910e+02
3.06006006006005e+09	-4.33168487318636e+02,-6.50230628997867e+02
3.06106106106105e+09	-4.34746328362212e+02,-6.50505539151567e+02
3.06206206206205e+09	-4.36329119088373e+02,-6.50776154661392e+02
3.06306306306306e+09	-4.37916858743521e+02,-6.51042435143208e+02
3.06406406406406e+09	-4.39509546314563e+02,-6.51304340005012e+02
3.06506506506506e+09	-4.41107180525563e+02,-6.51561828447627e+02
3.06606606606606e+09	-4.42709759834377e+02,-6.51814859465428e+02
3.06706706706706e+09	-4.44317282429234e+02,-6.52063391847105e+02
3.06806806806806e+09	-4.45929746225341e+02,-6.52307384176473e+02
3.06906906906906e+09	-4.47547148861456e+02,-6.52546794833315e+02
3.07007007007006e+09	-4.49169487696407e+02,-6.52781581994257e+02
3.07107107107106e+09	-4.50796759805653e+02,-6.53011703633704e+02
3.07207207207206e+09	-4.52428961977777e+02,-6.53237117524798e+02
3.07307307307306e+09	-4.54066090710985e+02,-6.53457781240421e+02
3.07407407407407e+09	-4.55708142209577e+02,-6.53673652154250e+02
3.07507507507507e+09	-4.57355112380411e+02,-6.53884687441844e+02
3.07607607607607e+09	-4.59006996829337e+02,-6.54090844081776e+02
3.07707707707707e+09	-4.60663790857628e+02,-6.54292078856818e+02
3.07807807807807e+09	-4.62325489458381e+02,-6.54488348355155e+02
3.07907907907907e+09	-4.63992087312915e+02,-6.54679608971657e+02
3.08008008008007e+09	-4.65663578787151e+02,-6.54865816909194e+02
3.08108108108107e+09	-4.67339957927947e+02,-6.55046928179985e+02
3.08208208208207e+09	-4.69021218459483e+02,-6.55222898607018e+02
3.08308308308307e+09	-4.70707353779564e+02,-6.55393683825493e+02
3.08408408408407e+09	-4.72398356955948e+02,-6.55559239284326e+02
3.08508508508507e+09	-4.74094220722635e+02,-6.55719520247697e+02
3.08608608608608e+09	-4.75794937476196e+02,-6.55874481796660e+02
3.08708708708708e+09	-4.77500499271999e+02,-6.56024078830772e+02
3.08808808808808e+09	-4.79210897820522e+02,-6.56168266069813e+02
3.08908908908908e+09	-4.80926124483575e+02,-6.56306998055521e+02
3.09009009009008e+09	-4.82646170270550e+02,-6.56440229153402e+02
3.09109109109108e+09	-4.84371025834676e+02,-6.56567913554584e+02
3.09209209209208e+09	-4.86100681469211e+02,-6.56690005277720e+02
3.09309309309308e+09	-4.87835127103654e+02,-6.56806458170948e+02
3.09409409409408e+09	-4.89574352299975e+02,-6.56917225913909e+02
3.09509509509508e+09	-4.91318346248800e+02,-6.57022262019818e+02
3.09609609609608e+09	-4.93067097765567e+02,-6.57121519837578e+02
3.09709709709709e+09	-4.94820595286756e+02,-6.57214952553972e+02
3.09809809809809e+09	-4.96578826866016e+02,-6.57302513195888e+02
3.09909909909909e+09	-4.98341780170374e+02,-6.57384154632626e+02
3.10010010010009e+09	-5.00109442476346e+02,-6.57459829578231e+02
3.10110110110109e+09	-5.01881800666134e+02,-6.57529490593914e+02
3.10210210210209e+09	-5.03658841223768e+02,-6.57593090090522e+02
3.10310310310309e+09	-5.05440550231244e+02,-6.57650580331053e+02
3.10410410410409e+09	-5.07226913364672e+02,-6.57701913433250e+02
3.10510510510509e+09	-5.09017915890429e+02,-6.57747041372250e+02
3.10610610610609e+09	-5.10813542661297e+02,-6.57785915983286e+02
3.10710710710709e+09	-5.12613778112603e+02,-6.57818488964463e+02
3.10810810810810e+09	-5.14418606258351e+02,-6.57844711879581e+02
3.10910910910910e+09	-5.16228010687384e+02,-6.57864536161039e+02
3.11011011011010e+09	-5.18041974559515e+02,-6.57877913112784e+02
3.11111111111110e+09	-5.19860480601671e+02,-6.57884793913337e+02
3.11211211211210e+09	-5.21683511104065e+02,-6.57885129618879e+02
3.11311311311310e+09	-5.23511047916317e+02,-6.57878871166395e+02
3.11411411411410e+09	-5.25343072443634e+02,-6.57865969376896e+02
3.11511511511510e+09	-5.27179565642990e+02,-6.57846374958699e+02
3.11611611611610e+09	-5.29020508019248e+02,-6.57820038510769e+02
3.11711711711710e+09	-5.30865879621401e+02,-6.57786910526140e+02
3.11811811811810e+09	-5.32715660038709e+02,-6.57746941395391e+02
3.11911911911910e+09	-5.34569828396933e+02,-6.57700081410202e+02
3.12012012012011e+09	-5.36428363354524e+02,-6.57646280766964e+02
3.12112112112111e+09	-5.38291243098835e+02,-6.57585489570467e+02
3.12212212212211e+09	-5.40158445342379e+02,-6.57517657837660e+02
3.12312312312311e+09	-5.42029947319060e+02,-6.57442735501472e+02
3.12412412412411e+09	-5.43905725780429e+02,-6.57360672414706e+02
3.12512512512511e+09	-5.45785756991955e+02,-6.57271418354002e+02
3.12612612612611e+09	-5.47670016729342e+02,-6.57174923023884e+02
3.12712712712711e+09	-5.49558480274807e+02,-6.57071136060854e+02
3.12812812812811e+09	-5.51451122413429e+02,-6.56960007037578e+02
3.12912912912911e+09	-5.53347917429503e+02,-6.56841485467138e+02
3.13013013013011e+09	-5.55248839102865e+02,-6.56715520807348e+02
3.13113113113112e+09	-5.57153860705344e+02,-6.56582062465158e+02
3.13213213213212e+09	-5.59062954997123e+02,-6.56441059801118e+02
3.13313313313312e+09	-5.60976094223224e+02,-6.56292462133924e+02
3.13413413413412e+09	-5.62893250109931e+02,-6.56136218745028e+02
3.13513513513512e+09	-5.64814393861287e+02,-6.55972278883334e+02
3.13613613613612e+09	-5.66739496155644e+02,-6.55800591769957e+02
3.13713713713712e+09	-5.68668527142175e+02,-6.55621106603069e+02
3.13813813813812e+09	-5.70601456437471e+02,-6.55433772562802e+02
3.13913913913912e+09	-5.72538253122130e+02,-6.55238538816242e+02
3.14014014014012e+09	-5.74478885737430e+02,-6.55035354522494e+02
3.14114114114112e+09	-5.76423322281982e+02,-6.54824168837817e+02
3.14214214214213e+09	-5.78371530208435e+02,-6.54604930920837e+02
3.14314314314313e+09	-5.80323476420257e+02,-6.54377589937841e+02
3.14414414414413e+09	-5.82279127268493e+02,-6.54142095068142e+02
3.14514514514513e+09	-5.84238448548596e+02,-6.53898395509515e+02
3.14614614614613e+09	-5.86201405497306e+02,-6.53646440483722e+02
3.14714714714713e+09	-5.88167962789541e+02,-6.53386179242099e+02
3.14814814814813e+09	-5.90138084535371e+02,-6.53117561071231e+02
3.14914914914913e+09	-5.92111734276998e+02,-6.52840535298693e+02
3.15015015015013e+09	-5.94088874985806e+02,-6.52555051298877e+02
3.15115115115113e+09	-5.96069469059466e+02,-6.52261058498886e+02
3.15215215215213e+09	-5.98053478319047e+02,-6.51958506384509e+02
3.15315315315313e+09	-6.00040864006240e+02,-6.51647344506274e+02
3.15415415415414e+09	-6.02031586780584e+02,-6.51327522485572e+02
3.15515515515514e+09	-6.04025606716782e+02,-6.50998990020859e+02
3.15615615615614e+09	-6.06022883302011e+02,-6.50661696893936e+02
3.15715715715714e+09	-6.08023375433405e+02,-6.50315592976301e+02
3.15815815815814e+09	-6.10027041415448e+02,-6.49960628235578e+02
3.15915915915914e+09	-6.12033838957552e+02,-6.49596752742023e+02
3.16016016016014e+09	-6.14043725171635e+02,-6.49223916675101e+02
3.16116116116114e+09	-6.16056656569748e+02,-6.48842070330141e+02
3.16216216216214e+09	-6.18072589061839e+02,-6.48451164125066e+02
3.16316316316314e+09	-6.20091477953492e+02,-6.48051148607193e+02
3.16416416416414e+09	-6.22113277943811e+02,-6.47641974460109e+02
3.16516516516515e+09	-6.24137943123308e+02,-6.47223592510624e+02
3.16616616616615e+09	-6.26165426971927e+02,-6.46795953735791e+02
3.16716716716715e+09	-6.28195682357080e+02,-6.46359009270004e+02
3.16816816816815e+09	-6.30228661531793e+02,-6.45912710412159e+02
3.16916916916915e+09	-6.32264316132933e+02,-6.45457008632903e+02
3.17017017017015e+09	-6.34302597179483e+02,-6.44991855581934e+02
3.17117117117115e+09	-6.36343455070898e+02,-6.44517203095390e+02
3.17217217217215e+09	-6.38386839585592e+02,-6.44033003203294e+02
3.17317317317315e+09	-6.40432699879433e+02,-6.43539208137076e+02
3.17417417417415e+09	-6.42480984484385e+02,-6.43035770337163e+02
3.17517517517515e+09	-6.44531641307192e+02,-6.42522642460632e+02
3.17617617617616e+09	-6.46584617628173e+02,-6.41999777388939e+02
3.17717717717716e+09	-6.48639860100102e+02,-6.41467128235702e+02
3.17817817817816e+09	-6.50697314747164e+02,-6.40924648354567e+02
3.17917917917916e+09	-6.52756926964045e+02,-6.40372291347118e+02
3.18018018018016e+09	-6.54818641515033e+02,-6.39810011070873e+02
3.18118118118116e+09	-6.56882402533325e+02,-6.39237761647323e+02
3.18218218218216e+09	-6.58948153520337e+02,-6.38655497470047e+02
3.18318318318316e+09	-6.61015837345156e+02,-6.38063173212885e+02
3.18418418418416e+09	-6.63085396244092e+02,-6.37460743838165e+02
3.18518518518516e+09	-6.65156771820324e+02,-6.36848164605000e+02
3.18618618618616e+09	-6.67229905043644e+02,-6.36225391077630e+02
3.18718718718716e+09	-6.69304736250331e+02,-6.35592379133838e+02
3.18818818818817e+09	-6.71381205143097e+02,-6.34949084973402e+02
3.18918918918917e+09	-6.73459250791163e+02,-6.34295465126619e+02
3.19019019019017e+09	-6.75538811630454e+02,-6.33631476462873e+02
3.19119119119117e+09	-6.77619825463882e+02,-6.32957076199254e+02
3.19219219219217e+09	-6.79702229461765e+02,-6.32272221909239e+02
3.19319319319317e+09	-6.81785960162339e+02,-6.31576871531406e+02
3.19419419419417e+09	-6.83870953472405e+02,-6.30870983378213e+02
3.19519519519517e+09	-6.85957144668088e+02,-6.30154516144809e+02
3.19619619619617e+09	-6.88044468395719e+02,-6.29427428917901e+02
3.19719719719717e+09	-6.90132858672853e+02,-6.28689681184658e+02
3.19819819819817e+09	-6.92222248889320e+02,-6.27941232841663e+02
3.19919919919918e+09	-6.94312571808582e+02,-6.27182044203900e+02
3.20020020020018e+09	-6.96403759569016e+02,-6.26412076013784e+02
3.20120120120118e+09	-6.98495743685476e+02,-6.25631289450222e+02
3.20220220220218e+09	-7.00588455050879e+02,-6.24839646137725e+02
3.20320320320318e+09	-7.02681823938001e+02,-6.24037108155530e+02
3.20420420420418e+09	-7.04775780001364e+02,-6.23223638046777e+02
3.20520520520518e+09	-7.06870252279241e+02,-6.22399198827703e+02
3.20620620620618e+09	-7.08965169195845e+02,-6.21563753996871e+02
3.20720720720718e+09	-7.11060458563623e+02,-6.20717267544414e+02
3.20820820820818e+09	-7.13156047585672e+02,-6.19859703961327e+02
3.20920920920918e+09	-7.15251862858343e+02,-6.18991028248750e+02
3.21021021021019e+09	-7.17347830373945e+02,-6.18111205927300e+02
3.21121121121119e+09	-7.19443875523584e+02,-6.17220203046408e+02
3.21221221221219e+09	-7.21539923100194e+02,-6.16317986193665e+02
3.21321321321319e+09	-7.23635897301664e+02,-6.15404522504207e+02
3.21421421421419e+09	-7.25731721734124e+02,-6.14479779670085e+02
3.21521521521519e+09	-7.27827319415397e+02,-6.13543725949655e+02
3.21621621621619e+09	-7.29922612778562e+02,-6.12596330176987e+02
3.21721721721719e+09	-7.32017523675703e+02,-6.11637561771260e+02
3.21821821821819e+09	-7.34111973381793e+02,-6.10667390746172e+02
3.21921921921919e+09	-7.36205882598696e+02,-6.09685787719351e+02
3.22022022022019e+09	-7.38299171459404e+02,-6.08692723921753e+02
3.22122122122119e+09	-7.40391759532322e+02,-6.07688171207074e+02
3.22222222222220e+09	-7.42483565825804e+02,-6.06672102061133e+02
3.22322322322320e+09	-7.44574508792750e+02,-6.05644489611273e+02
3.22422422422420e+09	-7.46664506335463e+02,-6.04605307635717e+02
3.22522522522520e+09	-7.48753475810574e+02,-6.03554530572937e+02
3.22622622622620e+09	-7.50841334034158e+02,-6.02492133531000e+02
3.22722722722720e+09	-7.52927997287008e+02,-6.01418092296883e+02
3.22822822822820e+09	-7.55013381320083e+02,-6.00332383345776e+02
3.22922922922920e+09	-7.57097401360075e+02,-5.99234983850359e+02
3.23023023023020e+09	-7.59179972115186e+02,-5.98125871690041e+02
3.23123123123120e+09	-7.61261007781009e+02,-5.97005025460193e+02
3.23223223223220e+09	-7.63340422046619e+02,-5.95872424481318e+02
3.23323323323321e+09	-7.65418128100810e+02,-5.94728048808197e+02
3.23423423423421e+09	-7.67494038638468e+02,-5.93571879239005e+02
3.23523523523521e+09	-7.69568065867153e+02,-5.92403897324375e+02
3.23623623623621e+09	-7.71640121513799e+02,-5.91224085376412e+02
3.23723723723721e+09	-7.73710116831603e+02,-5.90032426477676e+02
3.23823823823821e+09	-7.75777962607079e+02,-5.88828904490092e+02
3.23923923923921e+09	-7.77843569167240e+02,-5.87613504063830e+02
3.24024024024021e+09	-7.79906846386993e+02,-5.86386210646110e+02
3.24124124124121e+09	-7.81967703696665e+02,-5.85147010489952e+02
3.24224224224221e+09	-7.84026050089683e+02,-5.83895890662870e+02
3.24324324324321e+09	-7.86081794130475e+02,-5.82632839055479e+02
3.24424424424422e+09	-7.88134843962441e+02,-5.81357844390073e+02
3.24524524524522e+09	-7.90185107316170e+02,-5.80070896229082e+02
3.24624624624622e+09	-7.92232491517773e+02,-5.78771984983489e+02
3.24724724724722e+09	-7.94276903497401e+02,-5.77461101921154e+02
3.24824824824822e+09	-7.96318249797916e+02,-5.76138239175050e+02
3.24924924924922e+09	-7.98356436583709e+02,-5.74803389751443e+02
3.25025025025022e+09	-8.00391369649705e+02,-5.73456547537935e+02
3.25125125125122e+09	-8.02422954430486e+02,-5.72097707311479e+02
3.25225225225222e+09	-8.04451096009676e+02,-5.70726864746219e+02
3.25325325325322e+09	-8.06475699129312e+02,-5.69344016421322e+02
3.25425425425422e+09	-8.08496668199539e+02,-5.67949159828638e+02
3.25525525525522e+09	-8.10513907308383e+02,-5.66542293380286e+02
3.25625625625623e+09	-8.12527320231668e+02,-5.65123416416137e+02
3.25725725725723e+09	-8.14536810443137e+02,-5.63692529211166e+02
3.25825825825823e+09	-8.16542281124684e+02,-5.62249632982711e+02
3.25925925925923e+09	-8.18543635176772e+02,-5.60794729897601e+02
3.26026026026023e+09	-8.20540775228959e+02,-5.59327823079171e+02
3.26126126126123e+09	-8.22533603650655e+02,-5.57848916614141e+02
3.26226226226223e+09	-8.24522022561893e+02,-5.56358015559399e+02
3.26326326326323e+09	-8.26505933844431e+02,-5.54855125948597e+02
3.26426426426423e+09	-8.28485239152802e+02,-5.53340254798687e+02
3.26526526526523e+09	-8.30459839925665e+02,-5.51813410116260e+02
3.26626626626623e+09	-8.32429637397216e+02,-5.50274600903775e+02
3.26726726726724e+09	-8.34394532608796e+02,-5.48723837165617e+02
3.26826826826824e+09	-8.36354426420534e+02,-5.47161129914076e+02
3.26926926926924e+09	-8.38309219523280e+02,-5.45586491175083e+02
3.27027027027024e+09	-8.40258812450545e+02,-5.43999933993865e+02
3.27127127127124e+09	-8.42203105590639e+02,-5.42401472440415e+02
3.27227227227224e+09	-8.44141999198904e+02,-5.40791121614819e+02
3.27327327327324e+09	-8.46075393410142e+02,-5.39168897652386e+02
3.27427427427424e+09	-8.48003188251070e+02,-5.37534817728670e+02
3.27527527527524e+09	-8.49925283652988e+02,-5.35888900064278e+02
3.27627627627624e+09	-8.51841579464534e+02,-5.34231163929519e+02
3.27727727727724e+09	-8.53751975464556e+02,-5.32561629648891e+02
3.27827827827824e+09	-8.55656371375088e+02,-5.30880318605393e+02
3.27927927927925e+09	-8.57554666874517e+02,-5.29187253244621e+02
3.28028028028025e+09	-8.59446761610733e+02,-5.27482457078744e+02
3.28128128128125e+09	-8.61332555214514e+02,-5.25765954690237e+02
3.28228228228225e+09	-8.63211947312946e+02,-5.24037771735465e+02
3.28328328328325e+09	-8.65084837542981e+02,-5.22297934948043e+02
3.28428428428425e+09	-8.66951125565036e+02,-5.20546472142061e+02
3.28528528528525e+09	-8.68810711076817e+02,-5.18783412215021e+02
3.28628628628625e+09	-8.70663493827068e+02,-5.17008785150684e+02
3.28728728728725e+09	-8.72509373629566e+02,-5.15222622021623e+02
3.28828828828825e+09	-8.74348250377129e+02,-5.13424954991623e+02
3.28928928928925e+09	-8.76180024055677e+02,-5.11615817317884e+02
3.29029029029026e+09	-8.78004594758480e+02,-5.09795243352963e+02
3.29129129129126e+09	-8.79821862700378e+02,-5.07963268546572e+02
3.29229229229226e+09	-8.81631728232151e+02,-5.06119929447104e+02
3.29329329329326e+09	-8.83434091854920e+02,-5.04265263702990e+02
3.29429429429426e+09	-8.85228854234629e+02,-5.02399310063811e+02
3.29529529529526e+09	-8.87015916216587e+02,-5.00522108381211e+02
3.29629629629626e+09	-8.88795178840084e+02,-4.98633699609572e+02
3.29729729729726e+09	-8.90566543353062e+02,-4.96734125806465e+02
3.29829829829826e+09	-8.92329911226821e+02,-4.94823430132903e+02
3.29929929929926e+09	-8.94085184170781e+02,-4.92901656853342e+02
3.30030030030026e+09	-8.95832264147319e+02,-4.90968851335462e+02
3.30130130130127e+09	-8.97571053386602e+02,-4.89025060049713e+02
3.30230230230227e+09	-8.99301454401514e+02,-4.87070330568636e+02
3.30330330330327e+09	-9.01023370002528e+02,-4.85104711565962e+02
3.30430430430427e+09	-9.02736703312731e+02,-4.83128252815447e+02
3.30530530530527e+09	-9.04441357782739e+02,-4.81141005189510e+02
3.30630630630627e+09	-9.06137237205758e+02,-4.79143020657597e+02
